Circuit: * C:\Users\tooyi\Documents\GitHub\superhet\subcircuits\mixer\mixer.asc

Direct Newton iteration for .op point succeeded.
Semiconductor Device Operating Points:
                        --- Bipolar Transistors ---
Name:       q2          q1
Model:    2n2369      2n2369
Ib:        1.34e-4     1.42e-4
Ic:        9.79e-3     9.77e-3
Vbe:       6.76e-1     6.78e-1
Vbc:      -6.35e+0     0.00e+0
Vce:       7.03e+0     6.78e-1
BetaDC:    7.31e+1     6.88e+1
Gm:        3.69e-1     3.68e-1
Rpi:       1.99e+2     1.87e+2
Rx:        1.00e+1     1.00e+1
Ro:        1.09e+4     1.02e+4
Cbe:        NaN         NaN
Cbc:        NaN         NaN
Cjs:       0.00e+0     0.00e+0
BetaAC:    7.33e+1     6.88e+1
Cbx:       0.00e+0     0.00e+0
Ft:        6.31e+8     6.23e+8



Date: Sun May  3 17:48:48 2020
Total elapsed time: 0.029 seconds.

tnom = 27
temp = 27
method = trap
totiter = 4
traniter = 0
tranpoints = 0
accept = 0
rejected = 0
matrix size = 10
fillins = 0
solver = Normal
Matrix Compiler1: 738 bytes object code size
Matrix Compiler2: 856 bytes object code size
